T1F74 7660:315 SEGGER J-Link V4.92 Log File (0000ms, 164927ms total)
T1F74 7660:315 DLL Compiled: Sep 30 2014 09:33:42 (0000ms, 164927ms total)
T1F74 7660:315 Logging started @ 2021-08-10 10:42 (0000ms, 164927ms total)
T1F74 7660:315 JLINK_SetWarnOutHandler(...) (0000ms, 164927ms total)
T1F74 7660:315 JLINK_OpenEx(...)
Firmware: J-Link ARM-OB STM32 compiled Aug 22 2012 19:52:04
Hardware: V7.00
S/N: 20090928
Feature(s): RDI,FlashDL,FlashBP,JFlash,GDBFullDevice "CORTEX-M0" selected (0 KB flash, 0 KB RAM).  returns O.K. (0280ms, 165207ms total)
T1F74 7660:595 JLINK_GetEmuCaps()  returns 0x88EA5833 (0000ms, 165207ms total)
T1F74 7660:595 JLINK_TIF_GetAvailable(...) (0001ms, 165208ms total)
T1F74 7660:597 JLINK_SetErrorOutHandler(...) (0000ms, 165208ms total)
T1F74 7660:597 JLINK_ExecCommand("ProjectFile = "C:\Users\Administrator\Desktop\Infrared_tracking\JLinkSettings.ini"", ...)Device "CORTEX-M0" selected (0 KB flash, 0 KB RAM).  returns 0x00 (0003ms, 165211ms total)
T1F74 7660:603 JLINK_ExecCommand("Device = ARMCM0", ...)Device "CORTEX-M0" selected (0 KB flash, 0 KB RAM).  returns 0x00 (0003ms, 165214ms total)
T1F74 7660:606 JLINK_ExecCommand("DisableConnectionTimeout", ...)  returns 0x01 (0000ms, 165214ms total)
T1F74 7660:606 JLINK_GetHardwareVersion()  returns 0x11170 (0000ms, 165214ms total)
T1F74 7660:606 JLINK_GetDLLVersion()  returns 49200 (0000ms, 165214ms total)
T1F74 7660:606 JLINK_GetFirmwareString(...) (0000ms, 165214ms total)
T1F74 7660:613 JLINK_GetDLLVersion()  returns 49200 (0000ms, 165214ms total)
T1F74 7660:613 JLINK_GetCompileDateTime() (0000ms, 165214ms total)
T1F74 7660:615 JLINK_GetFirmwareString(...) (0000ms, 165214ms total)
T1F74 7660:623 JLINK_GetHardwareVersion()  returns 0x11170 (0000ms, 165214ms total)
T1F74 7660:638 JLINK_TIF_Select(JLINKARM_TIF_SWD)  returns 0x00 (0004ms, 165218ms total)
T1F74 7660:642 JLINK_SetSpeed(5000) (0002ms, 165220ms total)
T1F74 7660:644 JLINK_GetId() >0x108 TIF>Found SWD-DP with ID 0x0BB11477 >0x0D TIF> >0x21 TIF> >0x0D TIF> >0x28 TIF> >0x0D TIF> >0x28 TIF> >0x0D TIF> >0x21 TIF> >0x0D TIF> >0x28 TIF> >0x0D TIF> >0x21 TIF> >0x0D TIF> >0x21 TIF> >0x0D TIF> >0x21 TIF> >0x0D TIF> >0x21 TIF> >0x0D TIF> >0x28 TIF> >0x0D TIF> >0x28 TIF> >0x0D TIF> >0x21 TIF> >0x0D TIF> >0x28 TIF> >0x0D TIF> >0x28 TIF> >0x0D TIF> >0x28 TIF> >0x0D TIF> >0x21 TIF> >0x0D TIF> >0x21 TIF> >0x0D TIF> >0x28 TIF> >0x0D TIF> >0x21 TIF> >0x0D TIF>
 >0x21 TIF>Found Cortex-M0 r0p0, Little endian. -- CPU_WriteMem(4 bytes @ 0xE0002000) -- CPU_ReadMem(4 bytes @ 0xE000EDF0) -- CPU_ReadMem(4 bytes @ 0xE0002000)FPUnit: 4 code (BP) slots and 0 literal slots -- CPU_ReadMem(4 bytes @ 0xE000EDFC) -- CPU_ReadMem(4 bytes @ 0xE0001000) -- CPU_WriteMem(4 bytes @ 0xE0001000) -- CPU_ReadMem(4 bytes @ 0xE00FF018) >0x0D TIF> >0x21 TIF>  returns 0x0BB11477 (0089ms, 165309ms total)
T1F74 7660:733 JLINK_GetDLLVersion()  returns 49200 (0000ms, 165309ms total)
T1F74 7660:733 JLINK_CORE_GetFound()  returns 0x60000FF (0001ms, 165310ms total)
T1F74 7660:739 JLINK_GetDebugInfo(0x100) -- Value=0xE00FF003  returns 0x00 (0000ms, 165310ms total)
T1F74 7660:739 JLINK_GetDebugInfo(0x101)  returns 0xFFFFFFFF (0000ms, 165310ms total)
T1F74 7660:739 JLINK_ReadMemEx(0xE0041FF0, 0x0010 Bytes, ..., AccessWidth = 33554436) -- CPU is running -- CPU_ReadMem(16 bytes @ 0xE0041FF0) - Data: 00 00 00 00 00 00 00 00 00 00 00 00 00 00 00 00  returns 0x10 (0001ms, 165311ms total)
T1F74 7660:740 JLINK_GetDebugInfo(0x102)  returns 0xFFFFFFFF (0000ms, 165311ms total)
T1F74 7660:740 JLINK_GetDebugInfo(0x103)  returns 0xFFFFFFFF (0000ms, 165311ms total)
T1F74 7660:740 JLINK_ReadMemEx(0xE0040FF0, 0x0010 Bytes, ..., AccessWidth = 33554436) -- CPU is running -- CPU_ReadMem(16 bytes @ 0xE0040FF0) - Data: 00 00 00 00 00 00 00 00 00 00 00 00 00 00 00 00  returns 0x10 (0002ms, 165313ms total)
T1F74 7660:742 JLINK_GetDebugInfo(0x104)  returns 0xFFFFFFFF (0000ms, 165313ms total)
T1F74 7660:742 JLINK_GetDebugInfo(0x105)  returns 0xFFFFFFFF (0000ms, 165313ms total)
T1F74 7660:742 JLINK_GetDebugInfo(0x106)  returns 0xFFFFFFFF (0000ms, 165313ms total)
T1F74 7660:742 JLINK_GetDebugInfo(0x107)  returns 0xFFFFFFFF (0000ms, 165313ms total)
T1F74 7660:742 JLINK_GetDebugInfo(0x10C)  returns 0xFFFFFFFF (0000ms, 165313ms total)
T1F74 7660:742 JLINK_GetDebugInfo(0x01)  returns 0xFFFFFFFF (0000ms, 165313ms total)
T1F74 7660:742 JLINK_GetDeviceFamily()  returns 6 (0000ms, 165313ms total)
T1F74 7660:742 JLINK_ReadMemU32(0xE000ED00, 0x0001 Items, ...) -- CPU is running -- CPU_ReadMem(4 bytes @ 0xE000ED00) - Data: 00 C2 0C 41  returns 0x01 (0001ms, 165314ms total)
T1F74 7660:743 JLINK_GetDebugInfo(0x10F)  returns 0xFFFFFFFF (0000ms, 165314ms total)
T1F74 7660:743 JLINK_SetResetType(JLINKARM_RESET_TYPE_NORMAL)  returns JLINKARM_RESET_TYPE_NORMAL (0000ms, 165314ms total)
T1F74 7660:743 JLINK_Reset() -- CPU is running -- CPU_WriteMem(4 bytes @ 0xE000EDF0) -- CPU is running -- CPU_WriteMem(4 bytes @ 0xE000EDFC) >0x35 TIF> -- CPU is running -- CPU_WriteMem(4 bytes @ 0xE000ED0C) -- CPU is running -- CPU_ReadMem(4 bytes @ 0xE000EDF0) -- CPU is running -- CPU_ReadMem(4 bytes @ 0xE000EDF0) -- CPU is running -- CPU_ReadMem(4 bytes @ 0xE000EDF0) -- CPU is running -- CPU_ReadMem(4 bytes @ 0xE000EDF0) -- CPU is running -- CPU_ReadMem(4 bytes @ 0xE000EDF0) -- CPU is running
 -- CPU_ReadMem(4 bytes @ 0xE000EDF0) -- CPU is running -- CPU_ReadMem(4 bytes @ 0xE000EDF0) -- CPU is running -- CPU_ReadMem(4 bytes @ 0xE000EDF0) -- CPU is running -- CPU_ReadMem(4 bytes @ 0xE000EDF0) -- CPU is running -- CPU_ReadMem(4 bytes @ 0xE000EDF0) -- CPU is running -- CPU_ReadMem(4 bytes @ 0xE000EDF0) -- CPU is running -- CPU_ReadMem(4 bytes @ 0xE000EDF0) -- CPU is running -- CPU_ReadMem(4 bytes @ 0xE000EDF0) -- CPU is running -- CPU_ReadMem(4 bytes @ 0xE000EDF0) -- CPU is running
 -- CPU_ReadMem(4 bytes @ 0xE000EDF0) -- CPU is running -- CPU_ReadMem(4 bytes @ 0xE000EDF0) -- CPU is running -- CPU_ReadMem(4 bytes @ 0xE000EDF0) -- CPU is running -- CPU_ReadMem(4 bytes @ 0xE000EDF0) -- CPU is running -- CPU_ReadMem(4 bytes @ 0xE000EDF0) -- CPU is running -- CPU_ReadMem(4 bytes @ 0xE000EDF0) -- CPU is running -- CPU_ReadMem(4 bytes @ 0xE000EDF0) -- CPU is running -- CPU_ReadMem(4 bytes @ 0xE000EDF0) -- CPU is running -- CPU_ReadMem(4 bytes @ 0xE000EDF0) -- CPU is running
 -- CPU_ReadMem(4 bytes @ 0xE000EDF0) -- CPU is running -- CPU_ReadMem(4 bytes @ 0xE000EDF0) -- CPU is running -- CPU_ReadMem(4 bytes @ 0xE000EDF0) -- CPU is running -- CPU_ReadMem(4 bytes @ 0xE000EDF0) -- CPU is running -- CPU_ReadMem(4 bytes @ 0xE000EDF0) -- CPU is running -- CPU_ReadMem(4 bytes @ 0xE000EDF0) -- CPU is running -- CPU_ReadMem(4 bytes @ 0xE000EDF0) -- CPU is running -- CPU_ReadMem(4 bytes @ 0xE000EDF0) -- CPU is running -- CPU_ReadMem(4 bytes @ 0xE000EDF0) -- CPU is running
 -- CPU_ReadMem(4 bytes @ 0xE000EDF0) -- CPU is running -- CPU_ReadMem(4 bytes @ 0xE000EDF0) -- CPU is running -- CPU_ReadMem(4 bytes @ 0xE000EDF0) -- CPU is running -- CPU_ReadMem(4 bytes @ 0xE000EDF0) -- CPU is running -- CPU_ReadMem(4 bytes @ 0xE000EDF0) -- CPU is running -- CPU_ReadMem(4 bytes @ 0xE000EDF0) -- CPU is running -- CPU_ReadMem(4 bytes @ 0xE000EDF0) -- CPU is running -- CPU_ReadMem(4 bytes @ 0xE000EDF0) -- CPU is running -- CPU_ReadMem(4 bytes @ 0xE000EDF0) -- CPU is running
 -- CPU_ReadMem(4 bytes @ 0xE000EDF0) -- CPU is running -- CPU_ReadMem(4 bytes @ 0xE000EDF0) -- CPU is running -- CPU_ReadMem(4 bytes @ 0xE000EDF0) -- CPU is running -- CPU_ReadMem(4 bytes @ 0xE000EDF0) -- CPU is running -- CPU_ReadMem(4 bytes @ 0xE000EDF0) -- CPU is running -- CPU_ReadMem(4 bytes @ 0xE000EDF0) -- CPU is running -- CPU_ReadMem(4 bytes @ 0xE000EDF0) -- CPU is running -- CPU_ReadMem(4 bytes @ 0xE000EDF0) -- CPU is running -- CPU_ReadMem(4 bytes @ 0xE000EDF0) -- CPU is running
 -- CPU_ReadMem(4 bytes @ 0xE000EDF0) -- CPU is running -- CPU_ReadMem(4 bytes @ 0xE000EDF0) -- CPU is running -- CPU_ReadMem(4 bytes @ 0xE000EDF0) -- CPU is running -- CPU_ReadMem(4 bytes @ 0xE000EDF0) -- CPU is running -- CPU_ReadMem(4 bytes @ 0xE000EDF0) -- CPU is running -- CPU_ReadMem(4 bytes @ 0xE000EDF0) -- CPU is running -- CPU_ReadMem(4 bytes @ 0xE000EDF0) -- CPU is running -- CPU_ReadMem(4 bytes @ 0xE000EDF0) -- CPU is running -- CPU_ReadMem(4 bytes @ 0xE000EDF0) -- CPU is running
 -- CPU_ReadMem(4 bytes @ 0xE000EDF0) -- CPU is running -- CPU_ReadMem(4 bytes @ 0xE000EDF0) -- CPU is running -- CPU_ReadMem(4 bytes @ 0xE000EDF0) -- CPU is running -- CPU_ReadMem(4 bytes @ 0xE000EDF0) -- CPU is running -- CPU_ReadMem(4 bytes @ 0xE000EDF0) -- CPU is running -- CPU_ReadMem(4 bytes @ 0xE000EDF0) -- CPU is running -- CPU_ReadMem(4 bytes @ 0xE000EDF0) -- CPU is running -- CPU_ReadMem(4 bytes @ 0xE000EDF0) -- CPU is running -- CPU_ReadMem(4 bytes @ 0xE000EDF0) -- CPU is running
 -- CPU_ReadMem(4 bytes @ 0xE000EDF0) -- CPU is running -- CPU_ReadMem(4 bytes @ 0xE000EDF0) -- CPU is running -- CPU_ReadMem(4 bytes @ 0xE000EDF0) -- CPU is running -- CPU_ReadMem(4 bytes @ 0xE000EDF0) -- CPU is running -- CPU_ReadMem(4 bytes @ 0xE000EDF0) -- CPU is running -- CPU_ReadMem(4 bytes @ 0xE000EDF0) -- CPU is running -- CPU_ReadMem(4 bytes @ 0xE000EDF0) -- CPU is running -- CPU_ReadMem(4 bytes @ 0xE000EDF0) -- CPU is running -- CPU_ReadMem(4 bytes @ 0xE000EDF0) -- CPU is running
 -- CPU_ReadMem(4 bytes @ 0xE000EDF0) -- CPU is running -- CPU_ReadMem(4 bytes @ 0xE000EDF0) -- CPU is running -- CPU_ReadMem(4 bytes @ 0xE000EDF0) -- CPU is running -- CPU_ReadMem(4 bytes @ 0xE000EDF0) -- CPU is running -- CPU_ReadMem(4 bytes @ 0xE000EDF0) -- CPU is running -- CPU_ReadMem(4 bytes @ 0xE000EDF0) -- CPU is running -- CPU_ReadMem(4 bytes @ 0xE000EDF0) -- CPU is running -- CPU_ReadMem(4 bytes @ 0xE000EDF0) -- CPU is running -- CPU_ReadMem(4 bytes @ 0xE000EDF0) -- CPU is running
 -- CPU_ReadMem(4 bytes @ 0xE000EDF0) -- CPU is running -- CPU_ReadMem(4 bytes @ 0xE000EDF0) -- CPU is running -- CPU_ReadMem(4 bytes @ 0xE000EDF0) -- CPU is running -- CPU_ReadMem(4 bytes @ 0xE000EDF0) -- CPU is running -- CPU_ReadMem(4 bytes @ 0xE000EDF0) -- CPU is running -- CPU_ReadMem(4 bytes @ 0xE000EDF0) -- CPU is running -- CPU_ReadMem(4 bytes @ 0xE000EDF0) -- CPU is running -- CPU_ReadMem(4 bytes @ 0xE000EDF0) -- CPU is running -- CPU_ReadMem(4 bytes @ 0xE000EDF0) -- CPU is running
 -- CPU_ReadMem(4 bytes @ 0xE000EDF0) -- CPU is running -- CPU_ReadMem(4 bytes @ 0xE000EDF0) -- CPU is running -- CPU_ReadMem(4 bytes @ 0xE000EDF0) -- CPU is running -- CPU_ReadMem(4 bytes @ 0xE000EDF0) -- CPU is running -- CPU_ReadMem(4 bytes @ 0xE000EDF0) -- CPU is running -- CPU_ReadMem(4 bytes @ 0xE000EDF0) -- CPU is running -- CPU_ReadMem(4 bytes @ 0xE000EDF0) -- CPU is running -- CPU_ReadMem(4 bytes @ 0xE000EDF0) -- CPU is running -- CPU_ReadMem(4 bytes @ 0xE000EDF0) -- CPU is running
 -- CPU_ReadMem(4 bytes @ 0xE000EDF0) -- CPU is running -- CPU_ReadMem(4 bytes @ 0xE000EDF0) -- CPU is running -- CPU_ReadMem(4 bytes @ 0xE000EDF0) -- CPU is running -- CPU_ReadMem(4 bytes @ 0xE000EDF0) -- CPU is running -- CPU_ReadMem(4 bytes @ 0xE000EDF0) -- CPU is running -- CPU_ReadMem(4 bytes @ 0xE000EDF0) -- CPU is running -- CPU_ReadMem(4 bytes @ 0xE000EDF0) -- CPU is running -- CPU_ReadMem(4 bytes @ 0xE000EDF0) -- CPU is running -- CPU_ReadMem(4 bytes @ 0xE000EDF0) -- CPU is running
 -- CPU_ReadMem(4 bytes @ 0xE000EDF0) -- CPU is running -- CPU_ReadMem(4 bytes @ 0xE000EDF0) -- CPU is running -- CPU_ReadMem(4 bytes @ 0xE000EDF0) -- CPU is running -- CPU_ReadMem(4 bytes @ 0xE000EDF0) -- CPU is running -- CPU_ReadMem(4 bytes @ 0xE000EDF0) -- CPU is running -- CPU_ReadMem(4 bytes @ 0xE000EDF0) -- CPU is running -- CPU_ReadMem(4 bytes @ 0xE000EDF0) -- CPU is running -- CPU_ReadMem(4 bytes @ 0xE000EDF0) -- CPU is running -- CPU_ReadMem(4 bytes @ 0xE000EDF0) -- CPU is running
 -- CPU_ReadMem(4 bytes @ 0xE000EDF0) -- CPU is running -- CPU_ReadMem(4 bytes @ 0xE000EDF0) -- CPU is running -- CPU_ReadMem(4 bytes @ 0xE000EDF0) -- CPU is running -- CPU_ReadMem(4 bytes @ 0xE000EDF0) -- CPU is running -- CPU_ReadMem(4 bytes @ 0xE000EDF0) -- CPU is running -- CPU_ReadMem(4 bytes @ 0xE000EDF0) -- CPU is running -- CPU_ReadMem(4 bytes @ 0xE000EDF0) -- CPU is running -- CPU_ReadMem(4 bytes @ 0xE000EDF0) -- CPU is running -- CPU_ReadMem(4 bytes @ 0xE000EDF0) -- CPU is running
 -- CPU_ReadMem(4 bytes @ 0xE000EDF0) -- CPU is running -- CPU_ReadMem(4 bytes @ 0xE000EDF0) -- CPU is running -- CPU_ReadMem(4 bytes @ 0xE000EDF0) -- CPU is running -- CPU_ReadMem(4 bytes @ 0xE000EDF0) -- CPU is running -- CPU_ReadMem(4 bytes @ 0xE000EDF0) -- CPU is running -- CPU_ReadMem(4 bytes @ 0xE000EDF0) -- CPU is running -- CPU_ReadMem(4 bytes @ 0xE000EDF0) -- CPU is running -- CPU_ReadMem(4 bytes @ 0xE000EDF0) -- CPU is running -- CPU_ReadMem(4 bytes @ 0xE000EDF0) -- CPU is running
 -- CPU_ReadMem(4 bytes @ 0xE000EDF0) -- CPU is running -- CPU_ReadMem(4 bytes @ 0xE000EDF0) -- CPU is running -- CPU_ReadMem(4 bytes @ 0xE000EDF0) -- CPU is running -- CPU_ReadMem(4 bytes @ 0xE000EDF0) -- CPU is running -- CPU_ReadMem(4 bytes @ 0xE000EDF0) -- CPU is running -- CPU_ReadMem(4 bytes @ 0xE000EDF0) -- CPU is running -- CPU_ReadMem(4 bytes @ 0xE000EDF0) -- CPU is running -- CPU_ReadMem(4 bytes @ 0xE000EDF0) -- CPU is running -- CPU_ReadMem(4 bytes @ 0xE000EDF0) -- CPU is running
 -- CPU_ReadMem(4 bytes @ 0xE000EDF0) -- CPU is running -- CPU_ReadMem(4 bytes @ 0xE000EDF0) -- CPU is running -- CPU_ReadMem(4 bytes @ 0xE000EDF0) -- CPU is running -- CPU_ReadMem(4 bytes @ 0xE000EDF0) -- CPU is running -- CPU_ReadMem(4 bytes @ 0xE000EDF0) -- CPU is running -- CPU_ReadMem(4 bytes @ 0xE000EDF0) -- CPU is running -- CPU_ReadMem(4 bytes @ 0xE000EDF0) -- CPU is running -- CPU_ReadMem(4 bytes @ 0xE000EDF0) -- CPU is running -- CPU_ReadMem(4 bytes @ 0xE000EDF0) -- CPU is running
 -- CPU_ReadMem(4 bytes @ 0xE000EDF0) -- CPU is running -- CPU_ReadMem(4 bytes @ 0xE000EDF0) -- CPU is running -- CPU_ReadMem(4 bytes @ 0xE000EDF0) -- CPU is running -- CPU_ReadMem(4 bytes @ 0xE000EDF0) -- CPU is running -- CPU_ReadMem(4 bytes @ 0xE000EDF0) -- CPU is running -- CPU_ReadMem(4 bytes @ 0xE000EDF0) -- CPU is running -- CPU_ReadMem(4 bytes @ 0xE000EDF0) -- CPU is running -- CPU_ReadMem(4 bytes @ 0xE000EDF0) -- CPU is running -- CPU_ReadMem(4 bytes @ 0xE000EDF0) -- CPU is running
 -- CPU_ReadMem(4 bytes @ 0xE000EDF0) -- CPU is running -- CPU_ReadMem(4 bytes @ 0xE000EDF0) -- CPU is running -- CPU_ReadMem(4 bytes @ 0xE000EDF0) -- CPU is running -- CPU_ReadMem(4 bytes @ 0xE000EDF0) -- CPU is running -- CPU_ReadMem(4 bytes @ 0xE000EDF0) -- CPU is running -- CPU_ReadMem(4 bytes @ 0xE000EDF0) -- CPU is running -- CPU_ReadMem(4 bytes @ 0xE000EDF0) -- CPU is running -- CPU_ReadMem(4 bytes @ 0xE000EDF0) -- CPU is running -- CPU_ReadMem(4 bytes @ 0xE000EDF0) -- CPU is running
 -- CPU_ReadMem(4 bytes @ 0xE000EDF0) -- CPU is running -- CPU_ReadMem(4 bytes @ 0xE000EDF0) -- CPU is running -- CPU_ReadMem(4 bytes @ 0xE000EDF0) -- CPU is running -- CPU_ReadMem(4 bytes @ 0xE000EDF0)Could not set S_RESET_ST -- CPU is running -- CPU_WriteMem(4 bytes @ 0xE000EDF0) -- CPU is running -- CPU_WriteMem(4 bytes @ 0xE000EDFC) -- CPU_WriteMem(4 bytes @ 0xE000EDF0) -- CPU_WriteMem(4 bytes @ 0xE000EDFC) -- CPU_ReadMem(4 bytes @ 0xE000EDF0) -- CPU_WriteMem(4 bytes @ 0xE000EDFC)
 -- CPU_WriteMem(4 bytes @ 0xE000ED0C) -- CPU_ReadMem(4 bytes @ 0xE000EDF0) -- CPU_ReadMem(4 bytes @ 0xE000EDF0) -- CPU_ReadMem(4 bytes @ 0xE000EDF0) -- CPU_ReadMem(4 bytes @ 0xE000EDF0) -- CPU_ReadMem(4 bytes @ 0xE000EDF0) -- CPU_ReadMem(4 bytes @ 0xE000EDF0) -- CPU_ReadMem(4 bytes @ 0xE000EDF0) -- CPU_ReadMem(4 bytes @ 0xE000EDF0) -- CPU_ReadMem(4 bytes @ 0xE000EDF0) -- CPU_ReadMem(4 bytes @ 0xE000EDF0) -- CPU_ReadMem(4 bytes @ 0xE000EDF0) -- CPU_ReadMem(4 bytes @ 0xE000EDF0)
 -- CPU_ReadMem(4 bytes @ 0xE000EDF0) -- CPU_ReadMem(4 bytes @ 0xE000EDF0) -- CPU_ReadMem(4 bytes @ 0xE000EDF0) -- CPU_ReadMem(4 bytes @ 0xE000EDF0) -- CPU_ReadMem(4 bytes @ 0xE000EDF0) -- CPU_ReadMem(4 bytes @ 0xE000EDF0) -- CPU_ReadMem(4 bytes @ 0xE000EDF0) -- CPU_ReadMem(4 bytes @ 0xE000EDF0) -- CPU_ReadMem(4 bytes @ 0xE000EDF0) -- CPU_ReadMem(4 bytes @ 0xE000EDF0) -- CPU_ReadMem(4 bytes @ 0xE000EDF0) -- CPU_ReadMem(4 bytes @ 0xE000EDF0) -- CPU_ReadMem(4 bytes @ 0xE000EDF0)
 -- CPU_ReadMem(4 bytes @ 0xE000EDF0) -- CPU_ReadMem(4 bytes @ 0xE000EDF0) -- CPU_ReadMem(4 bytes @ 0xE000EDF0) -- CPU_ReadMem(4 bytes @ 0xE000EDF0) -- CPU_ReadMem(4 bytes @ 0xE000EDF0) -- CPU_ReadMem(4 bytes @ 0xE000EDF0) -- CPU_ReadMem(4 bytes @ 0xE000EDF0) -- CPU_ReadMem(4 bytes @ 0xE000EDF0) -- CPU_ReadMem(4 bytes @ 0xE000EDF0) -- CPU_ReadMem(4 bytes @ 0xE000EDF0) -- CPU_ReadMem(4 bytes @ 0xE000EDF0) -- CPU_ReadMem(4 bytes @ 0xE000EDF0) -- CPU_ReadMem(4 bytes @ 0xE000EDF0)
 -- CPU_ReadMem(4 bytes @ 0xE000EDF0) -- CPU_ReadMem(4 bytes @ 0xE000EDF0) -- CPU_ReadMem(4 bytes @ 0xE000EDF0) -- CPU_ReadMem(4 bytes @ 0xE000EDF0) -- CPU_ReadMem(4 bytes @ 0xE000EDF0) -- CPU_ReadMem(4 bytes @ 0xE000EDF0) -- CPU_ReadMem(4 bytes @ 0xE000EDF0) -- CPU_ReadMem(4 bytes @ 0xE000EDF0) -- CPU_ReadMem(4 bytes @ 0xE000EDF0) -- CPU_ReadMem(4 bytes @ 0xE000EDF0) -- CPU_ReadMem(4 bytes @ 0xE000EDF0) -- CPU_ReadMem(4 bytes @ 0xE000EDF0) -- CPU_ReadMem(4 bytes @ 0xE000EDF0)
 -- CPU_ReadMem(4 bytes @ 0xE000EDF0) -- CPU_ReadMem(4 bytes @ 0xE000EDF0) -- CPU_ReadMem(4 bytes @ 0xE000EDF0) -- CPU_ReadMem(4 bytes @ 0xE000EDF0) -- CPU_ReadMem(4 bytes @ 0xE000EDF0) -- CPU_ReadMem(4 bytes @ 0xE000EDF0) -- CPU_ReadMem(4 bytes @ 0xE000EDF0) -- CPU_ReadMem(4 bytes @ 0xE000EDF0) -- CPU_ReadMem(4 bytes @ 0xE000EDF0) -- CPU_ReadMem(4 bytes @ 0xE000EDF0) -- CPU_ReadMem(4 bytes @ 0xE000EDF0) -- CPU_ReadMem(4 bytes @ 0xE000EDF0) -- CPU_ReadMem(4 bytes @ 0xE000EDF0)
 -- CPU_ReadMem(4 bytes @ 0xE000EDF0) -- CPU_ReadMem(4 bytes @ 0xE000EDF0) -- CPU_ReadMem(4 bytes @ 0xE000EDF0) -- CPU_ReadMem(4 bytes @ 0xE000EDF0) -- CPU_ReadMem(4 bytes @ 0xE000EDF0) -- CPU_ReadMem(4 bytes @ 0xE000EDF0) -- CPU_ReadMem(4 bytes @ 0xE000EDF0) -- CPU_ReadMem(4 bytes @ 0xE000EDF0) -- CPU_ReadMem(4 bytes @ 0xE000EDF0) -- CPU_ReadMem(4 bytes @ 0xE000EDF0) -- CPU_ReadMem(4 bytes @ 0xE000EDF0) -- CPU_ReadMem(4 bytes @ 0xE000EDF0) -- CPU_ReadMem(4 bytes @ 0xE000EDF0)
 -- CPU_ReadMem(4 bytes @ 0xE000EDF0) -- CPU_ReadMem(4 bytes @ 0xE000EDF0) -- CPU_ReadMem(4 bytes @ 0xE000EDF0) -- CPU_ReadMem(4 bytes @ 0xE000EDF0) -- CPU_ReadMem(4 bytes @ 0xE000EDF0) -- CPU_ReadMem(4 bytes @ 0xE000EDF0) -- CPU_ReadMem(4 bytes @ 0xE000EDF0) -- CPU_ReadMem(4 bytes @ 0xE000EDF0) -- CPU_ReadMem(4 bytes @ 0xE000EDF0) -- CPU_ReadMem(4 bytes @ 0xE000EDF0) -- CPU_ReadMem(4 bytes @ 0xE000EDF0) -- CPU_ReadMem(4 bytes @ 0xE000EDF0) -- CPU_ReadMem(4 bytes @ 0xE000EDF0)
 -- CPU_ReadMem(4 bytes @ 0xE000EDF0) -- CPU_ReadMem(4 bytes @ 0xE000EDF0) -- CPU_ReadMem(4 bytes @ 0xE000EDF0) -- CPU_ReadMem(4 bytes @ 0xE000EDF0) -- CPU_ReadMem(4 bytes @ 0xE000EDF0) -- CPU_ReadMem(4 bytes @ 0xE000EDF0) -- CPU_ReadMem(4 bytes @ 0xE000EDF0) -- CPU_ReadMem(4 bytes @ 0xE000EDF0) -- CPU_ReadMem(4 bytes @ 0xE000EDF0) -- CPU_ReadMem(4 bytes @ 0xE000EDF0)Could not set S_RESET_ST >0x108 TIF>Found SWD-DP with ID 0x0BB11477 >0x0D TIF> >0x21 TIF> >0x0D TIF> >0x28 TIF> >0x0D TIF> >0x28 TIF>
 >0x0D TIF> >0x21 TIF> >0x0D TIF> >0x28 TIF> >0x0D TIF> >0x28 TIF> >0x0D TIF> >0x28 TIF> >0x0D TIF> >0x21 TIF> >0x0D TIF> >0x21 TIF> >0x0D TIF> >0x28 TIF> >0x0D TIF> >0x21 TIF> >0x0D TIF> >0x21 TIF>Found Cortex-M0 r0p0, Little endian. -- CPU_WriteMem(4 bytes @ 0xE000EDF0) -- CPU_WriteMem(4 bytes @ 0xE000EDFC) >0x35 TIF> -- CPU_WriteMem(4 bytes @ 0xE000ED0C) -- CPU_ReadMem(4 bytes @ 0xE000EDF0) -- CPU_ReadMem(4 bytes @ 0xE000EDF0) -- CPU_ReadMem(4 bytes @ 0xE000EDF0) -- CPU_ReadMem(4 bytes @ 0xE000EDF0)
 -- CPU_ReadMem(4 bytes @ 0xE000EDF0) -- CPU_ReadMem(4 bytes @ 0xE000EDF0) -- CPU_ReadMem(4 bytes @ 0xE000EDF0) -- CPU_ReadMem(4 bytes @ 0xE000EDF0) -- CPU_ReadMem(4 bytes @ 0xE000EDF0) -- CPU_ReadMem(4 bytes @ 0xE000EDF0) -- CPU_ReadMem(4 bytes @ 0xE000EDF0) -- CPU_ReadMem(4 bytes @ 0xE000EDF0) -- CPU_ReadMem(4 bytes @ 0xE000EDF0) -- CPU_ReadMem(4 bytes @ 0xE000EDF0) -- CPU_ReadMem(4 bytes @ 0xE000EDF0) -- CPU_ReadMem(4 bytes @ 0xE000EDF0) -- CPU_ReadMem(4 bytes @ 0xE000EDF0)
 -- CPU_ReadMem(4 bytes @ 0xE000EDF0) -- CPU_ReadMem(4 bytes @ 0xE000EDF0) -- CPU_ReadMem(4 bytes @ 0xE000EDF0) -- CPU_ReadMem(4 bytes @ 0xE000EDF0) -- CPU_ReadMem(4 bytes @ 0xE000EDF0) -- CPU_ReadMem(4 bytes @ 0xE000EDF0) -- CPU_ReadMem(4 bytes @ 0xE000EDF0) -- CPU_ReadMem(4 bytes @ 0xE000EDF0) -- CPU_ReadMem(4 bytes @ 0xE000EDF0) -- CPU_ReadMem(4 bytes @ 0xE000EDF0) -- CPU_ReadMem(4 bytes @ 0xE000EDF0) -- CPU_ReadMem(4 bytes @ 0xE000EDF0) -- CPU_ReadMem(4 bytes @ 0xE000EDF0)
 -- CPU_ReadMem(4 bytes @ 0xE000EDF0) -- CPU_ReadMem(4 bytes @ 0xE000EDF0) -- CPU_ReadMem(4 bytes @ 0xE000EDF0) -- CPU_ReadMem(4 bytes @ 0xE000EDF0) -- CPU_ReadMem(4 bytes @ 0xE000EDF0) -- CPU_ReadMem(4 bytes @ 0xE000EDF0) -- CPU_ReadMem(4 bytes @ 0xE000EDF0) -- CPU_ReadMem(4 bytes @ 0xE000EDF0) -- CPU_ReadMem(4 bytes @ 0xE000EDF0) -- CPU_ReadMem(4 bytes @ 0xE000EDF0) -- CPU_ReadMem(4 bytes @ 0xE000EDF0) -- CPU_ReadMem(4 bytes @ 0xE000EDF0) -- CPU_ReadMem(4 bytes @ 0xE000EDF0)
 -- CPU_ReadMem(4 bytes @ 0xE000EDF0) -- CPU_ReadMem(4 bytes @ 0xE000EDF0) -- CPU_ReadMem(4 bytes @ 0xE000EDF0) -- CPU_ReadMem(4 bytes @ 0xE000EDF0) -- CPU_ReadMem(4 bytes @ 0xE000EDF0) -- CPU_ReadMem(4 bytes @ 0xE000EDF0) -- CPU_ReadMem(4 bytes @ 0xE000EDF0) -- CPU_ReadMem(4 bytes @ 0xE000EDF0) -- CPU_ReadMem(4 bytes @ 0xE000EDF0) -- CPU_ReadMem(4 bytes @ 0xE000EDF0) -- CPU_ReadMem(4 bytes @ 0xE000EDF0) -- CPU_ReadMem(4 bytes @ 0xE000EDF0) -- CPU_ReadMem(4 bytes @ 0xE000EDF0)
 -- CPU_ReadMem(4 bytes @ 0xE000EDF0) -- CPU_ReadMem(4 bytes @ 0xE000EDF0) -- CPU_ReadMem(4 bytes @ 0xE000EDF0) -- CPU_ReadMem(4 bytes @ 0xE000EDF0) -- CPU_ReadMem(4 bytes @ 0xE000EDF0) -- CPU_ReadMem(4 bytes @ 0xE000EDF0) -- CPU_ReadMem(4 bytes @ 0xE000EDF0) -- CPU_ReadMem(4 bytes @ 0xE000EDF0) -- CPU_ReadMem(4 bytes @ 0xE000EDF0) -- CPU_ReadMem(4 bytes @ 0xE000EDF0) -- CPU_ReadMem(4 bytes @ 0xE000EDF0) -- CPU_ReadMem(4 bytes @ 0xE000EDF0) -- CPU_ReadMem(4 bytes @ 0xE000EDF0)
 -- CPU_ReadMem(4 bytes @ 0xE000EDF0) -- CPU_ReadMem(4 bytes @ 0xE000EDF0) -- CPU_ReadMem(4 bytes @ 0xE000EDF0) -- CPU_ReadMem(4 bytes @ 0xE000EDF0) -- CPU_ReadMem(4 bytes @ 0xE000EDF0) -- CPU_ReadMem(4 bytes @ 0xE000EDF0) -- CPU_ReadMem(4 bytes @ 0xE000EDF0) -- CPU_ReadMem(4 bytes @ 0xE000EDF0) -- CPU_ReadMem(4 bytes @ 0xE000EDF0) -- CPU_ReadMem(4 bytes @ 0xE000EDF0) -- CPU_ReadMem(4 bytes @ 0xE000EDF0) -- CPU_ReadMem(4 bytes @ 0xE000EDF0) -- CPU_ReadMem(4 bytes @ 0xE000EDF0)
 -- CPU_ReadMem(4 bytes @ 0xE000EDF0) -- CPU_ReadMem(4 bytes @ 0xE000EDF0) -- CPU_ReadMem(4 bytes @ 0xE000EDF0) -- CPU_ReadMem(4 bytes @ 0xE000EDF0) -- CPU_ReadMem(4 bytes @ 0xE000EDF0) -- CPU_ReadMem(4 bytes @ 0xE000EDF0) -- CPU_ReadMem(4 bytes @ 0xE000EDF0) -- CPU_ReadMem(4 bytes @ 0xE000EDF0) -- CPU_ReadMem(4 bytes @ 0xE000EDF0) -- CPU_ReadMem(4 bytes @ 0xE000EDF0) -- CPU_ReadMem(4 bytes @ 0xE000EDF0) -- CPU_ReadMem(4 bytes @ 0xE000EDF0) -- CPU_ReadMem(4 bytes @ 0xE000EDF0)
 -- CPU_ReadMem(4 bytes @ 0xE000EDF0) -- CPU_ReadMem(4 bytes @ 0xE000EDF0) -- CPU_ReadMem(4 bytes @ 0xE000EDF0) -- CPU_ReadMem(4 bytes @ 0xE000EDF0) -- CPU_ReadMem(4 bytes @ 0xE000EDF0) -- CPU_ReadMem(4 bytes @ 0xE000EDF0) -- CPU_ReadMem(4 bytes @ 0xE000EDF0) -- CPU_ReadMem(4 bytes @ 0xE000EDF0) -- CPU_ReadMem(4 bytes @ 0xE000EDF0) -- CPU_ReadMem(4 bytes @ 0xE000EDF0) -- CPU_ReadMem(4 bytes @ 0xE000EDF0) -- CPU_ReadMem(4 bytes @ 0xE000EDF0) -- CPU_ReadMem(4 bytes @ 0xE000EDF0)
 -- CPU_ReadMem(4 bytes @ 0xE000EDF0) -- CPU_ReadMem(4 bytes @ 0xE000EDF0) -- CPU_ReadMem(4 bytes @ 0xE000EDF0) -- CPU_ReadMem(4 bytes @ 0xE000EDF0) -- CPU_ReadMem(4 bytes @ 0xE000EDF0) -- CPU_ReadMem(4 bytes @ 0xE000EDF0) -- CPU_ReadMem(4 bytes @ 0xE000EDF0) -- CPU_ReadMem(4 bytes @ 0xE000EDF0) -- CPU_ReadMem(4 bytes @ 0xE000EDF0) -- CPU_ReadMem(4 bytes @ 0xE000EDF0) -- CPU_ReadMem(4 bytes @ 0xE000EDF0) -- CPU_ReadMem(4 bytes @ 0xE000EDF0) -- CPU_ReadMem(4 bytes @ 0xE000EDF0)
 -- CPU_ReadMem(4 bytes @ 0xE000EDF0) -- CPU_ReadMem(4 bytes @ 0xE000EDF0) -- CPU_ReadMem(4 bytes @ 0xE000EDF0) -- CPU_ReadMem(4 bytes @ 0xE000EDF0) -- CPU_ReadMem(4 bytes @ 0xE000EDF0) -- CPU_ReadMem(4 bytes @ 0xE000EDF0) -- CPU_ReadMem(4 bytes @ 0xE000EDF0) -- CPU_ReadMem(4 bytes @ 0xE000EDF0) -- CPU_ReadMem(4 bytes @ 0xE000EDF0) -- CPU_ReadMem(4 bytes @ 0xE000EDF0) -- CPU_ReadMem(4 bytes @ 0xE000EDF0) -- CPU_ReadMem(4 bytes @ 0xE000EDF0) -- CPU_ReadMem(4 bytes @ 0xE000EDF0)
 -- CPU_ReadMem(4 bytes @ 0xE000EDF0) -- CPU_ReadMem(4 bytes @ 0xE000EDF0) -- CPU_ReadMem(4 bytes @ 0xE000EDF0) -- CPU_ReadMem(4 bytes @ 0xE000EDF0) -- CPU_ReadMem(4 bytes @ 0xE000EDF0) -- CPU_ReadMem(4 bytes @ 0xE000EDF0) -- CPU_ReadMem(4 bytes @ 0xE000EDF0) -- CPU_ReadMem(4 bytes @ 0xE000EDF0) -- CPU_ReadMem(4 bytes @ 0xE000EDF0) -- CPU_ReadMem(4 bytes @ 0xE000EDF0) -- CPU_ReadMem(4 bytes @ 0xE000EDF0) -- CPU_ReadMem(4 bytes @ 0xE000EDF0) -- CPU_ReadMem(4 bytes @ 0xE000EDF0)
 -- CPU_ReadMem(4 bytes @ 0xE000EDF0) -- CPU_ReadMem(4 bytes @ 0xE000EDF0) -- CPU_ReadMem(4 bytes @ 0xE000EDF0) -- CPU_ReadMem(4 bytes @ 0xE000EDF0) -- CPU_ReadMem(4 bytes @ 0xE000EDF0) -- CPU_ReadMem(4 bytes @ 0xE000EDF0) -- CPU_ReadMem(4 bytes @ 0xE000EDF0) -- CPU_ReadMem(4 bytes @ 0xE000EDF0) -- CPU_ReadMem(4 bytes @ 0xE000EDF0) -- CPU_ReadMem(4 bytes @ 0xE000EDF0) -- CPU_ReadMem(4 bytes @ 0xE000EDF0) -- CPU_ReadMem(4 bytes @ 0xE000EDF0) -- CPU_ReadMem(4 bytes @ 0xE000EDF0)
 -- CPU_ReadMem(4 bytes @ 0xE000EDF0) -- CPU_ReadMem(4 bytes @ 0xE000EDF0) -- CPU_ReadMem(4 bytes @ 0xE000EDF0) -- CPU_ReadMem(4 bytes @ 0xE000EDF0) -- CPU_ReadMem(4 bytes @ 0xE000EDF0) -- CPU_ReadMem(4 bytes @ 0xE000EDF0) -- CPU_ReadMem(4 bytes @ 0xE000EDF0) -- CPU_ReadMem(4 bytes @ 0xE000EDF0) -- CPU_ReadMem(4 bytes @ 0xE000EDF0) -- CPU_ReadMem(4 bytes @ 0xE000EDF0) -- CPU_ReadMem(4 bytes @ 0xE000EDF0) -- CPU_ReadMem(4 bytes @ 0xE000EDF0) -- CPU_ReadMem(4 bytes @ 0xE000EDF0)
 -- CPU_ReadMem(4 bytes @ 0xE000EDF0) -- CPU_ReadMem(4 bytes @ 0xE000EDF0) -- CPU_ReadMem(4 bytes @ 0xE000EDF0) -- CPU_ReadMem(4 bytes @ 0xE000EDF0) -- CPU_ReadMem(4 bytes @ 0xE000EDF0) -- CPU_ReadMem(4 bytes @ 0xE000EDF0) -- CPU_ReadMem(4 bytes @ 0xE000EDF0) -- CPU_ReadMem(4 bytes @ 0xE000EDF0)Could not set S_RESET_ST -- CPU_WriteMem(4 bytes @ 0xE000EDF0) -- CPU_WriteMem(4 bytes @ 0xE000EDFC) -- CPU_WriteMem(4 bytes @ 0xE000EDF0) -- CPU_WriteMem(4 bytes @ 0xE000EDFC) -- CPU_ReadMem(4 bytes @ 0xE000EDF0)
 -- CPU_WriteMem(4 bytes @ 0xE000EDFC) -- CPU_WriteMem(4 bytes @ 0xE000ED0C) -- CPU_ReadMem(4 bytes @ 0xE000EDF0) -- CPU_ReadMem(4 bytes @ 0xE000EDF0) -- CPU_ReadMem(4 bytes @ 0xE000EDF0) -- CPU_ReadMem(4 bytes @ 0xE000EDF0) -- CPU_ReadMem(4 bytes @ 0xE000EDF0) -- CPU_ReadMem(4 bytes @ 0xE000EDF0) -- CPU_ReadMem(4 bytes @ 0xE000EDF0) -- CPU_ReadMem(4 bytes @ 0xE000EDF0) -- CPU_ReadMem(4 bytes @ 0xE000EDF0) -- CPU_ReadMem(4 bytes @ 0xE000EDF0) -- CPU_ReadMem(4 bytes @ 0xE000EDF0)
 -- CPU_ReadMem(4 bytes @ 0xE000EDF0) -- CPU_ReadMem(4 bytes @ 0xE000EDF0) -- CPU_ReadMem(4 bytes @ 0xE000EDF0) -- CPU_ReadMem(4 bytes @ 0xE000EDF0) -- CPU_ReadMem(4 bytes @ 0xE000EDF0) -- CPU_ReadMem(4 bytes @ 0xE000EDF0) -- CPU_ReadMem(4 bytes @ 0xE000EDF0) -- CPU_ReadMem(4 bytes @ 0xE000EDF0) -- CPU_ReadMem(4 bytes @ 0xE000EDF0) -- CPU_ReadMem(4 bytes @ 0xE000EDF0) -- CPU_ReadMem(4 bytes @ 0xE000EDF0) -- CPU_ReadMem(4 bytes @ 0xE000EDF0) -- CPU_ReadMem(4 bytes @ 0xE000EDF0)
 -- CPU_ReadMem(4 bytes @ 0xE000EDF0) -- CPU_ReadMem(4 bytes @ 0xE000EDF0) -- CPU_ReadMem(4 bytes @ 0xE000EDF0) -- CPU_ReadMem(4 bytes @ 0xE000EDF0) -- CPU_ReadMem(4 bytes @ 0xE000EDF0) -- CPU_ReadMem(4 bytes @ 0xE000EDF0) -- CPU_ReadMem(4 bytes @ 0xE000EDF0) -- CPU_ReadMem(4 bytes @ 0xE000EDF0) -- CPU_ReadMem(4 bytes @ 0xE000EDF0) -- CPU_ReadMem(4 bytes @ 0xE000EDF0) -- CPU_ReadMem(4 bytes @ 0xE000EDF0) -- CPU_ReadMem(4 bytes @ 0xE000EDF0) -- CPU_ReadMem(4 bytes @ 0xE000EDF0)
 -- CPU_ReadMem(4 bytes @ 0xE000EDF0) -- CPU_ReadMem(4 bytes @ 0xE000EDF0) -- CPU_ReadMem(4 bytes @ 0xE000EDF0) -- CPU_ReadMem(4 bytes @ 0xE000EDF0) -- CPU_ReadMem(4 bytes @ 0xE000EDF0) -- CPU_ReadMem(4 bytes @ 0xE000EDF0) -- CPU_ReadMem(4 bytes @ 0xE000EDF0) -- CPU_ReadMem(4 bytes @ 0xE000EDF0) -- CPU_ReadMem(4 bytes @ 0xE000EDF0) -- CPU_ReadMem(4 bytes @ 0xE000EDF0) -- CPU_ReadMem(4 bytes @ 0xE000EDF0) -- CPU_ReadMem(4 bytes @ 0xE000EDF0) -- CPU_ReadMem(4 bytes @ 0xE000EDF0)
 -- CPU_ReadMem(4 bytes @ 0xE000EDF0) -- CPU_ReadMem(4 bytes @ 0xE000EDF0) -- CPU_ReadMem(4 bytes @ 0xE000EDF0) -- CPU_ReadMem(4 bytes @ 0xE000EDF0) -- CPU_ReadMem(4 bytes @ 0xE000EDF0) -- CPU_ReadMem(4 bytes @ 0xE000EDF0) -- CPU_ReadMem(4 bytes @ 0xE000EDF0) -- CPU_ReadMem(4 bytes @ 0xE000EDF0) -- CPU_ReadMem(4 bytes @ 0xE000EDF0) -- CPU_ReadMem(4 bytes @ 0xE000EDF0) -- CPU_ReadMem(4 bytes @ 0xE000EDF0) -- CPU_ReadMem(4 bytes @ 0xE000EDF0) -- CPU_ReadMem(4 bytes @ 0xE000EDF0)
 -- CPU_ReadMem(4 bytes @ 0xE000EDF0) -- CPU_ReadMem(4 bytes @ 0xE000EDF0) -- CPU_ReadMem(4 bytes @ 0xE000EDF0) -- CPU_ReadMem(4 bytes @ 0xE000EDF0) -- CPU_ReadMem(4 bytes @ 0xE000EDF0) -- CPU_ReadMem(4 bytes @ 0xE000EDF0) -- CPU_ReadMem(4 bytes @ 0xE000EDF0) -- CPU_ReadMem(4 bytes @ 0xE000EDF0) -- CPU_ReadMem(4 bytes @ 0xE000EDF0) -- CPU_ReadMem(4 bytes @ 0xE000EDF0) -- CPU_ReadMem(4 bytes @ 0xE000EDF0) -- CPU_ReadMem(4 bytes @ 0xE000EDF0) -- CPU_ReadMem(4 bytes @ 0xE000EDF0)
 -- CPU_ReadMem(4 bytes @ 0xE000EDF0) -- CPU_ReadMem(4 bytes @ 0xE000EDF0) -- CPU_ReadMem(4 bytes @ 0xE000EDF0) -- CPU_ReadMem(4 bytes @ 0xE000EDF0) -- CPU_ReadMem(4 bytes @ 0xE000EDF0) -- CPU_ReadMem(4 bytes @ 0xE000EDF0) -- CPU_ReadMem(4 bytes @ 0xE000EDF0) -- CPU_ReadMem(4 bytes @ 0xE000EDF0) -- CPU_ReadMem(4 bytes @ 0xE000EDF0) -- CPU_ReadMem(4 bytes @ 0xE000EDF0) -- CPU_ReadMem(4 bytes @ 0xE000EDF0) -- CPU_ReadMem(4 bytes @ 0xE000EDF0) -- CPU_ReadMem(4 bytes @ 0xE000EDF0)
 -- CPU_ReadMem(4 bytes @ 0xE000EDF0) -- CPU_ReadMem(4 bytes @ 0xE000EDF0) -- CPU_ReadMem(4 bytes @ 0xE000EDF0) -- CPU_ReadMem(4 bytes @ 0xE000EDF0) -- CPU_ReadMem(4 bytes @ 0xE000EDF0) -- CPU_ReadMem(4 bytes @ 0xE000EDF0) -- CPU_ReadMem(4 bytes @ 0xE000EDF0) -- CPU_ReadMem(4 bytes @ 0xE000EDF0) -- CPU_ReadMem(4 bytes @ 0xE000EDF0) -- CPU_ReadMem(4 bytes @ 0xE000EDF0) -- CPU_ReadMem(4 bytes @ 0xE000EDF0)Could not set S_RESET_ST -- CPU_WriteMem(4 bytes @ 0xE0002000) -- CPU_ReadMem(4 bytes @ 0xE000EDFC)
 -- CPU_ReadMem(4 bytes @ 0xE0001000) -- CPU_WriteMem(4 bytes @ 0xE0001000) (1168ms, 166482ms total)
T1F74 7661:913 JLINK_Halt()  returns 0x00 (0001ms, 166483ms total)
T1F74 7661:914 JLINK_ReadMemU32(0xE000EDF0, 0x0001 Items, ...) -- CPU_ReadMem(4 bytes @ 0xE000EDF0) - Data: 03 00 03 00  returns 0x01 (0002ms, 166485ms total)
T1F74 7661:916 JLINK_WriteU32(0xE000EDF0, 0xA05F0003) -- CPU_WriteMem(4 bytes @ 0xE000EDF0)  returns 0x00 (0001ms, 166486ms total)
T1F74 7661:917 JLINK_WriteU32(0xE000EDFC, 0x01000000) -- CPU_WriteMem(4 bytes @ 0xE000EDFC)  returns 0x00 (0001ms, 166487ms total)
T1F74 7661:936 JLINK_GetHWStatus(...)  returns 0x00 (0001ms, 166488ms total)
T1F74 7661:954 JLINK_GetNumBPUnits(Type = 0xFFFFFF00)  returns 0x04 (0000ms, 166488ms total)
T1F74 7661:954 JLINK_GetNumBPUnits(Type = 0xF0)  returns 0x2000 (0000ms, 166488ms total)
T1F74 7661:954 JLINK_GetNumWPUnits()  returns 0x02 (0000ms, 166488ms total)
T1F74 7661:969 JLINK_GetSpeed()  returns 0xFA0 (0001ms, 166489ms total)
T1F74 7661:980 JLINK_ReadMemU32(0xE000E004, 0x0001 Items, ...) -- CPU_ReadMem(4 bytes @ 0xE000E004) - Data: 00 00 00 00  returns 0x01 (0001ms, 166490ms total)
T1F74 7661:981 JLINK_Halt()  returns 0x00 (0000ms, 166490ms total)
T1F74 7661:981 JLINK_IsHalted()  returns TRUE (0000ms, 166490ms total)
T1F74 7661:984 JLINK_WriteMem(0x10000000, 0x04B4 Bytes, ...) - Data: 00 BE 0A E0 0D 78 2D 06 68 40 08 24 40 00 00 D3 ... -- CPU_WriteMem(1204 bytes @ 0x10000000)  returns 0x4B4 (0015ms, 166505ms total)
T1F74 7661:999 JLINK_WriteReg(R0, 0x10000000)  returns 0x00 (0001ms, 166506ms total)
T1F74 7662:000 JLINK_WriteReg(R1, 0x00B71B00)  returns 0x00 (0000ms, 166506ms total)
T1F74 7662:000 JLINK_WriteReg(R2, 0x00000001)  returns 0x00 (0000ms, 166506ms total)
T1F74 7662:000 JLINK_WriteReg(R3, 0x00000000)  returns 0x00 (0000ms, 166506ms total)
T1F74 7662:000 JLINK_WriteReg(R4, 0x00000000)  returns 0x00 (0000ms, 166506ms total)
T1F74 7662:000 JLINK_WriteReg(R5, 0x00000000)  returns 0x00 (0000ms, 166506ms total)
T1F74 7662:000 JLINK_WriteReg(R6, 0x00000000)  returns 0x00 (0000ms, 166506ms total)
T1F74 7662:000 JLINK_WriteReg(R7, 0x00000000)  returns 0x00 (0000ms, 166506ms total)
T1F74 7662:000 JLINK_WriteReg(R8, 0x00000000)  returns 0x00 (0000ms, 166506ms total)
T1F74 7662:000 JLINK_WriteReg(R9, 0x100004A8)  returns 0x00 (0000ms, 166506ms total)
T1F74 7662:000 JLINK_WriteReg(R10, 0x00000000)  returns 0x00 (0000ms, 166506ms total)
T1F74 7662:000 JLINK_WriteReg(R11, 0x00000000)  returns 0x00 (0000ms, 166506ms total)
T1F74 7662:000 JLINK_WriteReg(R12, 0x00000000)  returns 0x00 (0000ms, 166506ms total)
T1F74 7662:000 JLINK_WriteReg(R13 (SP), 0x10001000)  returns 0x00 (0000ms, 166506ms total)
T1F74 7662:000 JLINK_WriteReg(R14, 0x10000001)  returns 0x00 (0000ms, 166506ms total)
T1F74 7662:000 JLINK_WriteReg(R15 (PC), 0x10000038)  returns 0x00 (0000ms, 166506ms total)
T1F74 7662:000 JLINK_WriteReg(XPSR, 0x01000000)  returns 0x00 (0000ms, 166506ms total)
T1F74 7662:000 JLINK_WriteReg(MSP, 0x10001000)  returns 0x00 (0000ms, 166506ms total)
T1F74 7662:000 JLINK_WriteReg(PSP, 0x10001000)  returns 0x00 (0000ms, 166506ms total)
T1F74 7662:000 JLINK_WriteReg(CFBP, 0x00000000)  returns 0x00 (0000ms, 166506ms total)
T1F74 7662:000 JLINK_SetBPEx(Addr = 0x10000000, Type = 0xFFFFFFF2)  returns 0x00000001 (0000ms, 166506ms total)
T1F74 7662:000 JLINK_Go() -- CPU_WriteMem(4 bytes @ 0xE0002000) -- CPU_WriteMem(4 bytes @ 0xE0002008) -- CPU_WriteMem(4 bytes @ 0xE000200C) -- CPU_WriteMem(4 bytes @ 0xE0002010) -- CPU_WriteMem(4 bytes @ 0xE0002014) -- CPU_WriteMem(4 bytes @ 0xE0001004) (0012ms, 166518ms total)
T1F74 7662:012 JLINK_IsHalted()  returns TRUE (0004ms, 166522ms total)
T1F74 7662:016 JLINK_ReadReg(R15 (PC))  returns 0x10000000 (0001ms, 166519ms total)
T1F74 7662:017 JLINK_ClrBPEx(BPHandle = 0x00000001)  returns 0x00 (0000ms, 166519ms total)
T1F74 7662:017 JLINK_ReadReg(R0)  returns 0x00000000 (0000ms, 166519ms total)
T1F74 7662:017 JLINK_WriteReg(R0, 0x10000000)  returns 0x00 (0000ms, 166519ms total)
T1F74 7662:017 JLINK_WriteReg(R1, 0x00001000)  returns 0x00 (0000ms, 166519ms total)
T1F74 7662:017 JLINK_WriteReg(R2, 0x000000FF)  returns 0x00 (0000ms, 166519ms total)
T1F74 7662:017 JLINK_WriteReg(R3, 0x00000000)  returns 0x00 (0000ms, 166519ms total)
T1F74 7662:017 JLINK_WriteReg(R4, 0x00000000)  returns 0x00 (0000ms, 166519ms total)
T1F74 7662:017 JLINK_WriteReg(R5, 0x00000000)  returns 0x00 (0000ms, 166519ms total)
T1F74 7662:017 JLINK_WriteReg(R6, 0x00000000)  returns 0x00 (0000ms, 166519ms total)
T1F74 7662:017 JLINK_WriteReg(R7, 0x00000000)  returns 0x00 (0000ms, 166519ms total)
T1F74 7662:017 JLINK_WriteReg(R8, 0x00000000)  returns 0x00 (0000ms, 166519ms total)
T1F74 7662:017 JLINK_WriteReg(R9, 0x100004A8)  returns 0x00 (0000ms, 166519ms total)
T1F74 7662:017 JLINK_WriteReg(R10, 0x00000000)  returns 0x00 (0000ms, 166519ms total)
T1F74 7662:017 JLINK_WriteReg(R11, 0x00000000)  returns 0x00 (0000ms, 166519ms total)
T1F74 7662:017 JLINK_WriteReg(R12, 0x00000000)  returns 0x00 (0000ms, 166519ms total)
T1F74 7662:017 JLINK_WriteReg(R13 (SP), 0x10001000)  returns 0x00 (0000ms, 166519ms total)
T1F74 7662:017 JLINK_WriteReg(R14, 0x10000001)  returns 0x00 (0000ms, 166519ms total)
T1F74 7662:017 JLINK_WriteReg(R15 (PC), 0x10000020)  returns 0x00 (0000ms, 166519ms total)
T1F74 7662:017 JLINK_WriteReg(XPSR, 0x01000000)  returns 0x00 (0000ms, 166519ms total)
T1F74 7662:017 JLINK_WriteReg(MSP, 0x10001000)  returns 0x00 (0000ms, 166519ms total)
T1F74 7662:017 JLINK_WriteReg(PSP, 0x10001000)  returns 0x00 (0000ms, 166519ms total)
T1F74 7662:017 JLINK_WriteReg(CFBP, 0x00000000)  returns 0x00 (0000ms, 166519ms total)
T1F74 7662:017 JLINK_SetBPEx(Addr = 0x10000000, Type = 0xFFFFFFF2)  returns 0x00000002 (0000ms, 166519ms total)
T1F74 7662:017 JLINK_Go() -- CPU_WriteMem(4 bytes @ 0xE0002000) (0005ms, 166524ms total)
T1F74 7662:022 JLINK_IsHalted()  returns TRUE (0005ms, 166529ms total)
T1F74 7662:027 JLINK_ReadReg(R15 (PC))  returns 0x10000000 (0000ms, 166524ms total)
T1F74 7662:027 JLINK_ClrBPEx(BPHandle = 0x00000002)  returns 0x00 (0000ms, 166524ms total)
T1F74 7662:027 JLINK_ReadReg(R0)  returns 0x00000001 (0000ms, 166524ms total)
T1F74 7662:027 JLINK_WriteReg(R0, 0x10000000)  returns 0x00 (0000ms, 166524ms total)
T1F74 7662:027 JLINK_WriteReg(R1, 0x00001000)  returns 0x00 (0001ms, 166525ms total)
T1F74 7662:028 JLINK_WriteReg(R2, 0x000000FF)  returns 0x00 (0000ms, 166525ms total)
T1F74 7662:028 JLINK_WriteReg(R3, 0x00000000)  returns 0x00 (0000ms, 166525ms total)
T1F74 7662:028 JLINK_WriteReg(R4, 0x00000000)  returns 0x00 (0000ms, 166525ms total)
T1F74 7662:028 JLINK_WriteReg(R5, 0x00000000)  returns 0x00 (0000ms, 166525ms total)
T1F74 7662:028 JLINK_WriteReg(R6, 0x00000000)  returns 0x00 (0000ms, 166525ms total)
T1F74 7662:028 JLINK_WriteReg(R7, 0x00000000)  returns 0x00 (0000ms, 166525ms total)
T1F74 7662:028 JLINK_WriteReg(R8, 0x00000000)  returns 0x00 (0000ms, 166525ms total)
T1F74 7662:028 JLINK_WriteReg(R9, 0x100004A8)  returns 0x00 (0000ms, 166525ms total)
T1F74 7662:028 JLINK_WriteReg(R10, 0x00000000)  returns 0x00 (0000ms, 166525ms total)
T1F74 7662:028 JLINK_WriteReg(R11, 0x00000000)  returns 0x00 (0000ms, 166525ms total)
T1F74 7662:028 JLINK_WriteReg(R12, 0x00000000)  returns 0x00 (0000ms, 166525ms total)
T1F74 7662:028 JLINK_WriteReg(R13 (SP), 0x10001000)  returns 0x00 (0000ms, 166525ms total)
T1F74 7662:028 JLINK_WriteReg(R14, 0x10000001)  returns 0x00 (0000ms, 166525ms total)
T1F74 7662:028 JLINK_WriteReg(R15 (PC), 0x100000B0)  returns 0x00 (0000ms, 166525ms total)
T1F74 7662:028 JLINK_WriteReg(XPSR, 0x01000000)  returns 0x00 (0000ms, 166525ms total)
T1F74 7662:028 JLINK_WriteReg(MSP, 0x10001000)  returns 0x00 (0000ms, 166525ms total)
T1F74 7662:028 JLINK_WriteReg(PSP, 0x10001000)  returns 0x00 (0000ms, 166525ms total)
T1F74 7662:028 JLINK_WriteReg(CFBP, 0x00000000)  returns 0x00 (0000ms, 166525ms total)
T1F74 7662:028 JLINK_SetBPEx(Addr = 0x10000000, Type = 0xFFFFFFF2)  returns 0x00000003 (0000ms, 166525ms total)
T1F74 7662:028 JLINK_Go() -- CPU_WriteMem(4 bytes @ 0xE0002000) (0004ms, 166529ms total)
T1F74 7662:032 JLINK_IsHalted()  returns TRUE (0005ms, 166534ms total)
T1F74 7662:037 JLINK_ReadReg(R15 (PC))  returns 0x10000000 (0000ms, 166529ms total)
T1F74 7662:037 JLINK_ClrBPEx(BPHandle = 0x00000003)  returns 0x00 (0000ms, 166529ms total)
T1F74 7662:037 JLINK_ReadReg(R0)  returns 0x00000000 (0000ms, 166529ms total)
T1F74 7662:037 JLINK_WriteReg(R0, 0x00000001)  returns 0x00 (0000ms, 166529ms total)
T1F74 7662:037 JLINK_WriteReg(R1, 0x00001000)  returns 0x00 (0000ms, 166529ms total)
T1F74 7662:037 JLINK_WriteReg(R2, 0x000000FF)  returns 0x00 (0000ms, 166529ms total)
T1F74 7662:037 JLINK_WriteReg(R3, 0x00000000)  returns 0x00 (0000ms, 166529ms total)
T1F74 7662:037 JLINK_WriteReg(R4, 0x00000000)  returns 0x00 (0000ms, 166529ms total)
T1F74 7662:037 JLINK_WriteReg(R5, 0x00000000)  returns 0x00 (0000ms, 166529ms total)
T1F74 7662:037 JLINK_WriteReg(R6, 0x00000000)  returns 0x00 (0000ms, 166529ms total)
T1F74 7662:037 JLINK_WriteReg(R7, 0x00000000)  returns 0x00 (0000ms, 166529ms total)
T1F74 7662:037 JLINK_WriteReg(R8, 0x00000000)  returns 0x00 (0000ms, 166529ms total)
T1F74 7662:037 JLINK_WriteReg(R9, 0x100004A8)  returns 0x00 (0000ms, 166529ms total)
T1F74 7662:037 JLINK_WriteReg(R10, 0x00000000)  returns 0x00 (0000ms, 166529ms total)
T1F74 7662:038 JLINK_WriteReg(R11, 0x00000000)  returns 0x00 (0000ms, 166530ms total)
T1F74 7662:038 JLINK_WriteReg(R12, 0x00000000)  returns 0x00 (0000ms, 166530ms total)
T1F74 7662:038 JLINK_WriteReg(R13 (SP), 0x10001000)  returns 0x00 (0000ms, 166530ms total)
T1F74 7662:038 JLINK_WriteReg(R14, 0x10000001)  returns 0x00 (0000ms, 166530ms total)
T1F74 7662:038 JLINK_WriteReg(R15 (PC), 0x1000005C)  returns 0x00 (0000ms, 166530ms total)
T1F74 7662:038 JLINK_WriteReg(XPSR, 0x01000000)  returns 0x00 (0000ms, 166530ms total)
T1F74 7662:038 JLINK_WriteReg(MSP, 0x10001000)  returns 0x00 (0000ms, 166530ms total)
T1F74 7662:038 JLINK_WriteReg(PSP, 0x10001000)  returns 0x00 (0000ms, 166530ms total)
T1F74 7662:038 JLINK_WriteReg(CFBP, 0x00000000)  returns 0x00 (0000ms, 166530ms total)
T1F74 7662:038 JLINK_SetBPEx(Addr = 0x10000000, Type = 0xFFFFFFF2)  returns 0x00000004 (0000ms, 166530ms total)
T1F74 7662:038 JLINK_Go() -- CPU_WriteMem(4 bytes @ 0xE0002000) (0004ms, 166534ms total)
T1F74 7662:042 JLINK_IsHalted()  returns TRUE (0005ms, 166539ms total)
T1F74 7662:047 JLINK_ReadReg(R15 (PC))  returns 0x10000000 (0000ms, 166534ms total)
T1F74 7662:047 JLINK_ClrBPEx(BPHandle = 0x00000004)  returns 0x00 (0000ms, 166534ms total)
T1F74 7662:047 JLINK_ReadReg(R0)  returns 0x00000000 (0000ms, 166534ms total)
T1F74 7662:103 JLINK_WriteMem(0x10000000, 0x04B4 Bytes, ...) - Data: 00 BE 0A E0 0D 78 2D 06 68 40 08 24 40 00 00 D3 ... -- CPU_WriteMem(1204 bytes @ 0x10000000)  returns 0x4B4 (0015ms, 166549ms total)
T1F74 7662:118 JLINK_WriteReg(R0, 0x10000000)  returns 0x00 (0000ms, 166549ms total)
T1F74 7662:118 JLINK_WriteReg(R1, 0x00B71B00)  returns 0x00 (0000ms, 166549ms total)
T1F74 7662:118 JLINK_WriteReg(R2, 0x00000002)  returns 0x00 (0000ms, 166549ms total)
T1F74 7662:118 JLINK_WriteReg(R3, 0x00000000)  returns 0x00 (0000ms, 166549ms total)
T1F74 7662:118 JLINK_WriteReg(R4, 0x00000000)  returns 0x00 (0000ms, 166549ms total)
T1F74 7662:118 JLINK_WriteReg(R5, 0x00000000)  returns 0x00 (0000ms, 166549ms total)
T1F74 7662:118 JLINK_WriteReg(R6, 0x00000000)  returns 0x00 (0000ms, 166549ms total)
T1F74 7662:118 JLINK_WriteReg(R7, 0x00000000)  returns 0x00 (0000ms, 166549ms total)
T1F74 7662:118 JLINK_WriteReg(R8, 0x00000000)  returns 0x00 (0000ms, 166549ms total)
T1F74 7662:118 JLINK_WriteReg(R9, 0x100004A8)  returns 0x00 (0000ms, 166549ms total)
T1F74 7662:118 JLINK_WriteReg(R10, 0x00000000)  returns 0x00 (0000ms, 166549ms total)
T1F74 7662:118 JLINK_WriteReg(R11, 0x00000000)  returns 0x00 (0000ms, 166549ms total)
T1F74 7662:118 JLINK_WriteReg(R12, 0x00000000)  returns 0x00 (0000ms, 166549ms total)
T1F74 7662:118 JLINK_WriteReg(R13 (SP), 0x10001000)  returns 0x00 (0000ms, 166549ms total)
T1F74 7662:118 JLINK_WriteReg(R14, 0x10000001)  returns 0x00 (0000ms, 166549ms total)
T1F74 7662:118 JLINK_WriteReg(R15 (PC), 0x10000038)  returns 0x00 (0000ms, 166549ms total)
T1F74 7662:118 JLINK_WriteReg(XPSR, 0x01000000)  returns 0x00 (0000ms, 166549ms total)
T1F74 7662:118 JLINK_WriteReg(MSP, 0x10001000)  returns 0x00 (0000ms, 166549ms total)
T1F74 7662:118 JLINK_WriteReg(PSP, 0x10001000)  returns 0x00 (0000ms, 166549ms total)
T1F74 7662:118 JLINK_WriteReg(CFBP, 0x00000000)  returns 0x00 (0000ms, 166549ms total)
T1F74 7662:118 JLINK_SetBPEx(Addr = 0x10000000, Type = 0xFFFFFFF2)  returns 0x00000005 (0000ms, 166549ms total)
T1F74 7662:118 JLINK_Go() -- CPU_WriteMem(4 bytes @ 0xE0002000) (0004ms, 166553ms total)
T1F74 7662:122 JLINK_IsHalted()  returns TRUE (0005ms, 166558ms total)
T1F74 7662:127 JLINK_ReadReg(R15 (PC))  returns 0x10000000 (0000ms, 166553ms total)
T1F74 7662:127 JLINK_ClrBPEx(BPHandle = 0x00000005)  returns 0x00 (0000ms, 166553ms total)
T1F74 7662:127 JLINK_ReadReg(R0)  returns 0x00000000 (0000ms, 166553ms total)
T1F74 7662:128 JLINK_WriteMem(0x100008C4, 0x0100 Bytes, ...) - Data: B0 25 00 10 59 01 00 10 67 01 00 10 69 01 00 10 ... -- CPU_WriteMem(256 bytes @ 0x100008C4)  returns 0x100 (0004ms, 166557ms total)
T1F74 7662:132 JLINK_WriteReg(R0, 0x10000000)  returns 0x00 (0000ms, 166557ms total)
T1F74 7662:132 JLINK_WriteReg(R1, 0x00000100)  returns 0x00 (0000ms, 166557ms total)
T1F74 7662:132 JLINK_WriteReg(R2, 0x100008C4)  returns 0x00 (0000ms, 166557ms total)
T1F74 7662:132 JLINK_WriteReg(R3, 0x00000000)  returns 0x00 (0000ms, 166557ms total)
T1F74 7662:132 JLINK_WriteReg(R4, 0x00000000)  returns 0x00 (0000ms, 166557ms total)
T1F74 7662:132 JLINK_WriteReg(R5, 0x00000000)  returns 0x00 (0000ms, 166557ms total)
T1F74 7662:132 JLINK_WriteReg(R6, 0x00000000)  returns 0x00 (0000ms, 166557ms total)
T1F74 7662:132 JLINK_WriteReg(R7, 0x00000000)  returns 0x00 (0000ms, 166557ms total)
T1F74 7662:132 JLINK_WriteReg(R8, 0x00000000)  returns 0x00 (0000ms, 166557ms total)
T1F74 7662:132 JLINK_WriteReg(R9, 0x100004A8)  returns 0x00 (0000ms, 166557ms total)
T1F74 7662:132 JLINK_WriteReg(R10, 0x00000000)  returns 0x00 (0000ms, 166557ms total)
T1F74 7662:132 JLINK_WriteReg(R11, 0x00000000)  returns 0x00 (0000ms, 166557ms total)
T1F74 7662:132 JLINK_WriteReg(R12, 0x00000000)  returns 0x00 (0000ms, 166557ms total)
T1F74 7662:132 JLINK_WriteReg(R13 (SP), 0x10001000)  returns 0x00 (0000ms, 166557ms total)
T1F74 7662:132 JLINK_WriteReg(R14, 0x10000001)  returns 0x00 (0000ms, 166557ms total)
T1F74 7662:132 JLINK_WriteReg(R15 (PC), 0x100000D8)  returns 0x00 (0000ms, 166557ms total)
T1F74 7662:132 JLINK_WriteReg(XPSR, 0x01000000)  returns 0x00 (0000ms, 166557ms total)
T1F74 7662:132 JLINK_WriteReg(MSP, 0x10001000)  returns 0x00 (0000ms, 166557ms total)
T1F74 7662:132 JLINK_WriteReg(PSP, 0x10001000)  returns 0x00 (0000ms, 166557ms total)
T1F74 7662:132 JLINK_WriteReg(CFBP, 0x00000000)  returns 0x00 (0000ms, 166557ms total)
T1F74 7662:132 JLINK_SetBPEx(Addr = 0x10000000, Type = 0xFFFFFFF2)  returns 0x00000006 (0000ms, 166557ms total)
T1F74 7662:132 JLINK_Go() -- CPU_WriteMem(4 bytes @ 0xE0002000) (0005ms, 166562ms total)
T1F74 7662:137 JLINK_IsHalted()  returns FALSE (0001ms, 166563ms total)
T1F74 7662:254 JLINK_IsHalted()  returns TRUE (0004ms, 166566ms total)
T1F74 7662:258 JLINK_ReadReg(R15 (PC))  returns 0x10000000 (0000ms, 166562ms total)
T1F74 7662:258 JLINK_ClrBPEx(BPHandle = 0x00000006)  returns 0x00 (0000ms, 166562ms total)
T1F74 7662:258 JLINK_ReadReg(R0)  returns 0x00000000 (0000ms, 166562ms total)
T1F74 7662:259 JLINK_WriteMem(0x100008C4, 0x0100 Bytes, ...) - Data: 52 07 00 D3 30 C1 00 D5 0B 60 70 47 10 B5 64 29 ... -- CPU_WriteMem(256 bytes @ 0x100008C4)  returns 0x100 (0004ms, 166566ms total)
T1F74 7662:263 JLINK_WriteReg(R0, 0x10000100)  returns 0x00 (0000ms, 166566ms total)
T1F74 7662:263 JLINK_WriteReg(R1, 0x00000100)  returns 0x00 (0000ms, 166566ms total)
T1F74 7662:263 JLINK_WriteReg(R2, 0x100008C4)  returns 0x00 (0000ms, 166566ms total)
T1F74 7662:263 JLINK_WriteReg(R3, 0x00000000)  returns 0x00 (0000ms, 166566ms total)
T1F74 7662:263 JLINK_WriteReg(R4, 0x00000000)  returns 0x00 (0000ms, 166566ms total)
T1F74 7662:263 JLINK_WriteReg(R5, 0x00000000)  returns 0x00 (0000ms, 166566ms total)
T1F74 7662:263 JLINK_WriteReg(R6, 0x00000000)  returns 0x00 (0000ms, 166566ms total)
T1F74 7662:263 JLINK_WriteReg(R7, 0x00000000)  returns 0x00 (0000ms, 166566ms total)
T1F74 7662:263 JLINK_WriteReg(R8, 0x00000000)  returns 0x00 (0000ms, 166566ms total)
T1F74 7662:263 JLINK_WriteReg(R9, 0x100004A8)  returns 0x00 (0000ms, 166566ms total)
T1F74 7662:263 JLINK_WriteReg(R10, 0x00000000)  returns 0x00 (0000ms, 166566ms total)
T1F74 7662:263 JLINK_WriteReg(R11, 0x00000000)  returns 0x00 (0000ms, 166566ms total)
T1F74 7662:263 JLINK_WriteReg(R12, 0x00000000)  returns 0x00 (0000ms, 166566ms total)
T1F74 7662:263 JLINK_WriteReg(R13 (SP), 0x10001000)  returns 0x00 (0000ms, 166566ms total)
T1F74 7662:263 JLINK_WriteReg(R14, 0x10000001)  returns 0x00 (0001ms, 166567ms total)
T1F74 7662:264 JLINK_WriteReg(R15 (PC), 0x100000D8)  returns 0x00 (0000ms, 166567ms total)
T1F74 7662:264 JLINK_WriteReg(XPSR, 0x01000000)  returns 0x00 (0000ms, 166567ms total)
T1F74 7662:264 JLINK_WriteReg(MSP, 0x10001000)  returns 0x00 (0000ms, 166567ms total)
T1F74 7662:264 JLINK_WriteReg(PSP, 0x10001000)  returns 0x00 (0000ms, 166567ms total)
T1F74 7662:264 JLINK_WriteReg(CFBP, 0x00000000)  returns 0x00 (0000ms, 166567ms total)
T1F74 7662:264 JLINK_SetBPEx(Addr = 0x10000000, Type = 0xFFFFFFF2)  returns 0x00000007 (0000ms, 166567ms total)
T1F74 7662:264 JLINK_Go() -- CPU_WriteMem(4 bytes @ 0xE0002000) (0003ms, 166570ms total)
T1F74 7662:267 JLINK_IsHalted()  returns FALSE (0002ms, 166572ms total)
T1F74 7662:308 JLINK_IsHalted()  returns TRUE (0004ms, 166574ms total)
T1F74 7662:312 JLINK_ReadReg(R15 (PC))  returns 0x10000000 (0000ms, 166570ms total)
T1F74 7662:312 JLINK_ClrBPEx(BPHandle = 0x00000007)  returns 0x00 (0000ms, 166570ms total)
T1F74 7662:312 JLINK_ReadReg(R0)  returns 0x00000000 (0000ms, 166570ms total)
T1F74 7662:313 JLINK_WriteMem(0x100008C4, 0x0100 Bytes, ...) - Data: A9 68 64 1C 90 47 B4 42 F8 D3 28 46 C0 46 C0 46 ... -- CPU_WriteMem(256 bytes @ 0x100008C4)  returns 0x100 (0004ms, 166574ms total)
T1F74 7662:317 JLINK_WriteReg(R0, 0x10000200)  returns 0x00 (0000ms, 166574ms total)
T1F74 7662:317 JLINK_WriteReg(R1, 0x00000100)  returns 0x00 (0000ms, 166574ms total)
T1F74 7662:317 JLINK_WriteReg(R2, 0x100008C4)  returns 0x00 (0000ms, 166574ms total)
T1F74 7662:317 JLINK_WriteReg(R3, 0x00000000)  returns 0x00 (0000ms, 166574ms total)
T1F74 7662:317 JLINK_WriteReg(R4, 0x00000000)  returns 0x00 (0000ms, 166574ms total)
T1F74 7662:317 JLINK_WriteReg(R5, 0x00000000)  returns 0x00 (0000ms, 166574ms total)
T1F74 7662:317 JLINK_WriteReg(R6, 0x00000000)  returns 0x00 (0000ms, 166574ms total)
T1F74 7662:317 JLINK_WriteReg(R7, 0x00000000)  returns 0x00 (0000ms, 166574ms total)
T1F74 7662:317 JLINK_WriteReg(R8, 0x00000000)  returns 0x00 (0000ms, 166574ms total)
T1F74 7662:317 JLINK_WriteReg(R9, 0x100004A8)  returns 0x00 (0000ms, 166574ms total)
T1F74 7662:317 JLINK_WriteReg(R10, 0x00000000)  returns 0x00 (0000ms, 166574ms total)
T1F74 7662:317 JLINK_WriteReg(R11, 0x00000000)  returns 0x00 (0000ms, 166574ms total)
T1F74 7662:317 JLINK_WriteReg(R12, 0x00000000)  returns 0x00 (0000ms, 166574ms total)
T1F74 7662:317 JLINK_WriteReg(R13 (SP), 0x10001000)  returns 0x00 (0000ms, 166574ms total)
T1F74 7662:317 JLINK_WriteReg(R14, 0x10000001)  returns 0x00 (0000ms, 166574ms total)
T1F74 7662:317 JLINK_WriteReg(R15 (PC), 0x100000D8)  returns 0x00 (0000ms, 166574ms total)
